Using: /home/mario/synopsys/tool/hspice/V-2023.12-SP1/hspice/linux64/hspice lab8.sp
 ****** PrimeSim HSPICE -- V-2023.12-SP1 linux64 (Feb 29 2024 8764641) ******
  Copyright (c) 1986 - 2026 by Synopsys, Inc. All Rights Reserved.
  This software and the associated documentation are proprietary
  to Synopsys, Inc. This software may only be used in accordance
  with the terms and conditions of a written license agreement with
  Synopsys, Inc. All other use, reproduction, or distribution of
  this software is strictly prohibited.
  Input File: lab8.sp                                                           
  Command line options: /home/mario/synopsys/tool/hspice/V-2023.12-SP1/hspice/linux64/hspice lab8.sp
  Start time: Tue May 26 23:17:58 2026
 lic:  
 lic: FLEXlm: SDK_12.11.9.5 
 lic: USER:   mario                HOSTNAME: mario 
 lic: HOSTID: ffffffff91736e9d     PID:      4578 
 lic: Using FLEXlm license files: 
 lic: 27020@115.145.157.110:27021@115.145.157.110 
 lic: Unable to checkout (hspice) 
 lic:   
 lic: Using FLEXlm license file: 
 lic: 27021@115.145.157.110 
 lic: Checkout 1 primesim 
 lic: License/Maintenance for primesim will expire on 12-apr-2027/2026.03 
 lic: 4(in_use)/30(total) FLOATING license(s) on SERVER 27021@115.145.157.110 
 lic:   
1****** PrimeSim HSPICE -- V-2023.12-SP1 linux64 (Feb 29 2024 8764641) ******
 ******  
 lab8.sp

 ****** mos   model parameters tnom=  25.000 temp=  25.000 ******
 Model file: lab8.sp
 Model line:           26
 ***************************************************************************
 *** common model parameters  model name:   0:n        model type:nmos   ***
 ***************************************************************************
     names  values   units     names  values   units     names  values   units
     -----  ------   -----     -----  ------   -----     -----  ------   -----

   1*** geometry parameters ***
       ld= 200.00n meters      lmlt=   1.00                wd=   0.    meters 
     wmlt=   1.00                xl=   0.    meters        xw=   0.    meters 
     lref=   0.    meters      wref=   0.    meters      lref=   0.    meters 
     wref=   0.    meters     xlref=   0.    meters     xwref=   0.    meters 
     lmin=   0.    meters      wmin=   0.    meters      lmax=   0.    meters 
     wmax=   0.    meters 

   2*** threshold voltage parameters ***
      vto= 800.00m volts        nss=   0.    1/cm**2      tpg=   1.00         
      phi= 700.00m volts      gamma= 800.00m v**0.5      bulk=  gnd           
    ngate=   0.    cm**3       nsub= 5.7e+16 1/cm**3   delvto=   0.    volts  

   3*** gate overlap capacitance parameters ***
     cgbo=   0.    f/meter     cgdo= 300.00p f/meter     cgso= 300.00p f/meter
     meto=   0.    meters 

   4*** gate capacitance parameters ***
    capop=   2.00               cf1=   0.    volts        cf2= 100.00m volts  
      cf3=   1.00  volts        cf4=  50.00               cf5= 666.67m        
      cf6= 500.00               xqc= 500.00m              tox=  20.00n meters 
      cox=   1.73m f/m**2 

   5*** diffusion parasitic parameters ***
      acm=   0.                  is=  10.00f amps          js=   0.    a/m**2 
      jsw=   0.    amp/m        nds=   1.00               cbd=   0.    farad  
      cbs=   0.    farad         cj= 275.00u f/m**2      cjsw= 190.00p f/m    
   cjgate= 190.00p f/m           mj= 500.00m             mjsw= 330.00m        
       pb= 800.00m volts        php= 800.00m volts         tt=   0.    secs   
     hdif=   0.    meters      ldif=   0.    meters        rd=   0.    ohms   
       rs=   0.    ohms         rsh=   0.    ohms/sq       fc=   0.           
    alpha=   0.                 vcr=   0.    volts      iirat=   0.           
      rdc=   0.    ohms         rsc=   0.    ohms           n=   1.00         
     vnds=  -1.00  volts  

   6*** temperature effect parameters ***
     tlev=   0.               tlevc=   0.                  eg=   1.11  ev     
     gap1= 702.00u ev/deg      gap2=   1.11k deg          xti=   0.           
      bex=  -1.50               tcv=   0.    v/deg k      trd=   0.    /deg   
      trs=   0.    /deg         cta=   0.    /deg         ctp=   0.    /deg   

   7*** noise parameters ***
       kf=   0.                  af=   1.00              nlev=   2.00         
   gdsnoi=   1.00         

   ***  level  1  model parameters  ***

   lambda=  80.00m /v            kp=  86.33u a/v**2 
 Model file: lab8.sp
 Model line:           29
 ***************************************************************************
 *** common model parameters  model name:   0:p        model type:pmos   ***
 ***************************************************************************
     names  values   units     names  values   units     names  values   units
     -----  ------   -----     -----  ------   -----     -----  ------   -----

   1*** geometry parameters ***
       ld= 200.00n meters      lmlt=   1.00                wd=   0.    meters 
     wmlt=   1.00                xl=   0.    meters        xw=   0.    meters 
     lref=   0.    meters      wref=   0.    meters      lref=   0.    meters 
     wref=   0.    meters     xlref=   0.    meters     xwref=   0.    meters 
     lmin=   0.    meters      wmin=   0.    meters      lmax=   0.    meters 
     wmax=   0.    meters 

   2*** threshold voltage parameters ***
      vto=-800.00m volts        nss=   0.    1/cm**2      tpg=   1.00         
      phi= 700.00m volts      gamma= 800.00m v**0.5      bulk=  gnd           
    ngate=   0.    cm**3       nsub= 5.7e+16 1/cm**3   delvto=   0.    volts  

   3*** gate overlap capacitance parameters ***
     cgbo=   0.    f/meter     cgdo= 300.00p f/meter     cgso= 300.00p f/meter
     meto=   0.    meters 

   4*** gate capacitance parameters ***
    capop=   2.00               cf1=   0.    volts        cf2= 100.00m volts  
      cf3=   1.00  volts        cf4=  50.00               cf5= 666.67m        
      cf6= 500.00               xqc= 500.00m              tox=  20.00n meters 
      cox=   1.73m f/m**2 

   5*** diffusion parasitic parameters ***
      acm=   0.                  is=  10.00f amps          js=   0.    a/m**2 
      jsw=   0.    amp/m        nds=   1.00               cbd=   0.    farad  
      cbs=   0.    farad         cj= 275.00u f/m**2      cjsw= 190.00p f/m    
   cjgate= 190.00p f/m           mj= 500.00m             mjsw= 330.00m        
       pb= 800.00m volts        php= 800.00m volts         tt=   0.    secs   
     hdif=   0.    meters      ldif=   0.    meters        rd=   0.    ohms   
       rs=   0.    ohms         rsh=   0.    ohms/sq       fc=   0.           
    alpha=   0.                 vcr=   0.    volts      iirat=   0.           
      rdc=   0.    ohms         rsc=   0.    ohms           n=   1.00         
     vnds=  -1.00  volts  

   6*** temperature effect parameters ***
     tlev=   0.               tlevc=   0.                  eg=   1.11  ev     
     gap1= 702.00u ev/deg      gap2=   1.11k deg          xti=   0.           
      bex=  -1.50               tcv=   0.    v/deg k      trd=   0.    /deg   
      trs=   0.    /deg         cta=   0.    /deg         ctp=   0.    /deg   

   7*** noise parameters ***
       kf=   0.                  af=   1.00              nlev=   2.00         
   gdsnoi=   1.00         

   ***  level  1  model parameters  ***

   lambda= 100.00m /v            kp=  34.53u a/v**2 
  
      
 **info** set option symb=1 internally to help for convergence.
 *****************************************************************
 ******  option summary
 ******
 runlvl  = 3         bypass  = 2.0000    
 **info** dc convergence successful at Newton-Raphson method 
 ******  
 lab8.sp

 ****** operating point information tnom=  25.000 temp=  25.000 ******
 ****** operating point status is all       simulation time is     0.     
    node    =voltage      node    =voltage      node    =voltage

 +0:1       =   0.      0:2       =   0.      0:3       =   1.3808 
 +0:4       =   1.3808  0:5       =  -1.3535  0:6       =   1.3808 
 +0:7       = 220.8172m 0:8       =  -1.4412  0:9       =-566.8231m
 +0:10      =   1.1936  0:11      =   2.3213  0:12      =   1.1688 
 +0:13      = 358.6996m 0:14      =  -1.3646  0:vdd     =   2.5000 
 +0:vss     =  -2.5000 


 **** voltage sources

 subckt                                              
 element  0:vdd      0:vin1     0:vin2     0:vss     
  volts      2.5000     0.         0.        -2.5000 
  current -605.6289u    0.         0.       605.6289u
  power      1.5141m    0.         0.         1.5141m

     total voltage source power dissipation=    3.0281m       watts



 **** resistors

 subckt             
 element  0:rb      
  r value    7.6000k
  v drop   178.7192m
  current   23.5157u
  power      4.2027u



 **** mosfets


 subckt                                                                    
 element  0:m1       0:m2       0:m3       0:m4       0:m5       0:m6      
 model    0:n        0:n        0:n        0:p        0:p        0:p       
 region   Saturation Saturation Saturation Saturation Saturation Saturation
  id       122.2841u  122.2841u  244.5682u -122.2841u -122.2841u -272.7818u
  ibs      -11.4654f  -11.4654f    0.         0.         0.         0.     
  ibd      -38.8076f  -38.8076f  -11.4654f   11.1924f   11.1924f   22.7918f
  vgs        1.3535     1.3535     1.0588    -1.1192    -1.1192    -1.1192 
  vds        2.7342     2.7342     1.1465    -1.1192    -1.1192    -2.2792 
  vbs       -1.1465    -1.1465     0.         0.         0.         0.     
  vth        1.2178     1.2178   800.0000m -800.0000m -800.0000m -800.0000m
  vdsat    135.6912m  135.6912m  258.7799m -319.2384m -319.2384m -319.2383m
  vod      135.6912m  135.6912m  258.7799m -319.2384m -319.2384m -319.2383m
  beta      13.2830m   13.2830m    7.3041m    2.3998m    2.3998m    5.3532m
  gam eff  800.0000m  800.0000m  800.0000m  800.0000m  800.0000m  800.0000m
  gm         1.8024m    1.8024m    1.8902m  766.0989u  766.0989u    1.7090m
  gds        8.0269u    8.0269u   17.9216u   10.9975u   10.9975u   22.2150u
  gmb      530.5533u  530.5533u  903.6711u  366.2653u  366.2653u  817.0365u
  cdtot     30.8086f   30.8086f   18.7309f   15.1031f   15.1031f   30.7240f
  cgtot    158.1893f  158.1893f   96.4104f   77.4622f   77.4622f  156.6894f
  cstot    123.3051f  123.3051f   75.6923f   61.0421f   61.0421f  123.3051f
  cbtot      4.0756f    4.0756f    1.9872f    1.3170f    1.3170f    2.6603f
  cgs      123.3051f  123.3051f   75.6923f   61.0421f   61.0421f  123.3051f
  cgd       30.8086f   30.8086f   18.7309f   15.1031f   15.1031f   30.7240f



 subckt                                                                    
 element  0:m7       0:m8       0:m9       0:m10      0:m11      0:m12     
 model    0:n        0:p        0:n        0:p        0:p        0:n       
 region   Saturation Linear     Saturation Saturation Saturation Saturation
  id       272.7818u    1.1304p   25.0322u  -25.0322u  -25.0322u   23.5157u
  ibs        0.        11.1924f    0.        13.0642f    0.         0.     
  ibd      -27.2082f   11.1924f  -19.3318f   30.6682f   13.0642f  -10.5878f
  vgs        1.0588    -1.9476     1.0588    -1.7604    -1.3064     1.0588 
  vds        2.7208     3.5492n    1.9332    -1.7604    -1.3064     1.0588 
  vbs        0.         1.1192     0.         1.3064     0.         0.     
  vth      800.0000m   -1.2097   800.0000m   -1.2639  -800.0000m  800.0000m
  vdsat    258.7799m   -3.5492n  258.7799m -496.5477m -506.4185m  258.7799m
  vod      258.7799m -737.8797m  258.7799m -496.5477m -506.4185m  258.7799m
  beta       8.1467m  431.6430u  747.5975u  203.0518u  195.2134u  702.3063u
  gam eff  800.0000m  800.0000m  800.0000m  800.0000m  800.0000m  800.0000m
  gm         2.1082m    1.5320p  193.4632u  100.8249u   98.8597u  181.7427u
  gds       17.9216u  318.5006u    1.7344u    2.1285u    2.2140u    1.7344u
  gmb        1.0079m  454.3322f   92.4931u   28.4719u   47.2640u   86.8897u
  cdtot     18.9107f    9.9063f    1.8214f    1.2130f    1.2096f    1.8117f
  cgtot     96.5902f   19.8960f    9.3387f    6.1434f    6.1609f    9.3291f
  cstot     75.6923f    9.9063f    7.3251f    4.8834f    4.8834f    7.3251f
  cbtot      1.9872f   83.3732a  192.3110a   47.1068a   67.8958a  192.3110a
  cgs       75.6923f    9.9063f    7.3251f    4.8834f    4.8834f    7.3251f
  cgd       18.9107f    9.9063f    1.8214f    1.2130f    1.2096f    1.8117f



 subckt                                                                    
 element  0:m13      0:m14      0:m15      0:m16      0:m17      0:m18     
 model    0:p        0:p        0:n        0:n        0:n        0:n       
 region   Saturation Saturation Saturation Cutoff     Saturation Saturation
  id       -23.5157u  -23.5157u   39.7310u    0.        39.7310u   39.7310u
  ibs       13.3121f    1.7872f    0.       -10.5878f  -11.3542f  -28.5870f
  ibd       39.4122f   13.3121f  -11.3542f  -50.0000f  -28.5870f  -50.0000f
  vgs       -1.7356    -1.1277     1.1354    76.6427m    1.7233     2.1413 
  vds       -2.6100    -1.1525     1.1354     3.9412     1.7233     2.1413 
  vbs        1.3312   178.7192m    0.        -1.0588    -1.1354    -2.8587 
  vth       -1.2708  -880.5921m  800.0000m    1.1916     1.2145     1.6398 
  vdsat   -464.7760m -247.1072m  335.4226m    0.       508.7828m  501.4671m
  vod     -464.7760m -247.1072m  335.4226m   -1.1150   508.7828m  501.4671m
  beta     217.7209u  770.2231u  706.2761u  647.4645u  306.9689u  315.9907u
  gam eff  800.0000m  800.0000m  800.0000m  800.0000m  800.0000m  800.0000m
  gm       101.1914u  190.3277u  236.9010u    0.       156.1805u  158.4590u
  gds        1.8648u    2.1086u    2.9138u    0.         2.7934u    2.7136u
  gmb       28.4005u   81.2151u  113.2603u    0.        46.1125u   33.5994u
  cdtot      1.2192f    4.8340f    1.8125f    1.8008f  757.9343a  759.8590a
  cgtot      6.1526f   24.8624f    9.2884f    6.1257f    3.8398f    3.8351f
  cstot      4.8834f   19.5335f    7.3251f    1.8974f    3.0521f    3.0521f
  cbtot     49.9542a  494.9229a  150.8414a    2.4276f   29.7718a   23.1694a
  cgs        4.8834f   19.5335f    7.3251f    1.8974f    3.0521f    3.0521f
  cgd        1.2192f    4.8340f    1.8125f    1.8008f  757.9343a  759.8590a



 ******  
 lab8.sp

 ****** noise analysis tnom=  25.000 temp=  25.000 ******
 

====== Noise output port at: v(7)                            ======
 
     frequency =   1.0000        Hz

  
 Element Source Noise (V^2/Hz) Source Value (A^2/Hz) Source rx (Ohm) Integrated noise (V) Percent of Total (%) 
 m2      TOT    97.7097p                                             0.                   35.0829              
         rd     0.             0.                    0.              0.                                        
         rs     0.             0.                    0.              0.                                        
         id     97.7097p       1.97846e-23           2.22231x        0.                                        
         fn     0.             0.                    2.22231x        0.                                        
 m1      TOT    97.6913p                                             0.                   35.0764              
         rd     0.             0.                    0.              0.                                        
         rs     0.             0.                    0.              0.                                        
         id     97.6913p       1.97846e-23           2.22211x        0.                                        
         fn     0.             0.                    2.22211x        0.                                        
 m5      TOT    42.5575p                                             0.                   15.2804              
         rd     0.             0.                    0.              0.                                        
         rs     0.             0.                    0.              0.                                        
         id     42.5575p       8.40937e-24           2.24960x        0.                                        
         fn     0.             0.                    2.24960x        0.                                        
 m4      TOT    40.5097p                                             0.                   14.5451              
         rd     0.             0.                    0.              0.                                        
         rs     0.             0.                    0.              0.                                        
         id     40.5097p       8.40937e-24           2.19481x        0.                                        
         fn     0.             0.                    2.19481x        0.                                        
 m3      TOT    15.4524f                                             0.                   5.54823m             
         rd     0.             0.                    0.              0.                                        
         rs     0.             0.                    0.              0.                                        
         id     15.4524f       2.07481e-23           27.2903k        0.                                        
         fn     0.             0.                    27.2903k        0.                                        
 m7      TOT    14.3652f                                             0.                   5.15787m             
         rd     0.             0.                    0.              0.                                        
         rs     0.             0.                    0.              0.                                        
         id     14.3652f       2.31416e-23           24.9149k        0.                                        
         fn     0.             0.                    24.9149k        0.                                        
 m6      TOT    11.6447f                                             0.                   4.18106m             
         rd     0.             0.                    0.              0.                                        
         rs     0.             0.                    0.              0.                                        
         id     11.6447f       1.8759e-23            24.9149k        0.                                        
         fn     0.             0.                    24.9149k        0.                                        
 m12     TOT    383.276a                                             0.                   137.616u             
         rd     0.             0.                    0.              0.                                        
         rs     0.             0.                    0.              0.                                        
         id     383.276a       1.99497e-24           13.8608k        0.                                        
         fn     0.             0.                    13.8608k        0.                                        
 rb      TOT    187.850a                                             0.                   67.4481u             
         rs     187.850a       2.16649e-24           9.31167k        0.                                        
         1/f    0.             0.                    9.31167k        0.                                        
 m9      TOT    145.339a                                             0.                   52.1846u             
         rd     0.             0.                    0.              0.                                        
         rs     0.             0.                    0.              0.                                        
         id     145.339a       2.12362e-24           8.27282k        0.                                        
