Using: /home/mario/synopsys/tool/hspice/V-2023.12-SP1/hspice/linux64/hspice lab1.sp
 ****** PrimeSim HSPICE -- V-2023.12-SP1 linux64 (Feb 29 2024 8764641) ******
  Copyright (c) 1986 - 2026 by Synopsys, Inc. All Rights Reserved.
  This software and the associated documentation are proprietary
  to Synopsys, Inc. This software may only be used in accordance
  with the terms and conditions of a written license agreement with
  Synopsys, Inc. All other use, reproduction, or distribution of
  this software is strictly prohibited.
  Input File: lab1.sp                                                           
  Command line options: /home/mario/synopsys/tool/hspice/V-2023.12-SP1/hspice/linux64/hspice lab1.sp
  Start time: Tue May 26 17:51:57 2026
 lic:  
 lic: FLEXlm: SDK_12.11.9.5 
 lic: USER:   mario                HOSTNAME: mario 
 lic: HOSTID: ffffffff91736e9d     PID:      24569 
 lic: Using FLEXlm license file: 
 lic: 27021@115.145.157.110 
 lic: Checkout 1 hspice 
 lic: License/Maintenance for hspice will expire on 12-apr-2027/2026.03 
 lic: 5(in_use)/5(total) FLOATING license(s) on SERVER 27021@115.145.157.110 
 lic:   
 scientific notation:
 a=10**-18  f=10**-15  p=10**-12  n=10**-9  u=10**-6
 m=10**-3   k=10**3    x=10**6    g=10**9 


 circuit parameter definitions
  parameter          =  value 





 constants  - tnom         kt           vt           gapsi        ni
            298.15000    4.1163e-21    25.69184m     1.11562    1.2565e+16 
1****** PrimeSim HSPICE -- V-2023.12-SP1 linux64 (Feb 29 2024 8764641) ******
 ******  
 lab1.sp

 ****** circuit element summary tnom=  25.000 temp=  25.000 ******


 **** resistors

  
  
                                        
 element name        0:r1       0:r2    
 node1               0:1        0:2     
 node2               0:2        0:0     
 model                                  
 res eff             1.0000k    1.0000k 
 tc1                 0.         0.      
 tc2                 0.         0.      
 scale               1.0000     1.0000  
 m                   1.0000     1.0000  
 ac                  1.0000k    1.0000k 
 temp               25.0000    25.0000  
 l                   0.         0.      
 w                   0.         0.      
 cap                 0.         0.      
 noise            1.000e+00  1.000e+00  


 **** independent sources

     name         node1        node2      dc volt    ac mag    ac phase    type
  vi  1                 0                   10.0000     0.         0.      dc   
  
 ******  
 lab1.sp

 ****** element node table
                          
 0                r2 vi   
 1                r1 vi   
 2                r1 r2   
 *****************************************************************
 ******  option summary
 ******
 runlvl  = 3         bypass  = 2.0000    
 ******
 lab1.sp

 ****** dc transfer curves tnom=  25.000 temp=  25.000 ******
x

 volt         voltage    voltage   
             1          2          
    0.          0.         0.      
    1.00000     1.0000   500.0000m 
    2.00000     2.0000     1.0000  
    3.00000     3.0000     1.5000  
    4.00000     4.0000     2.0000  
    5.00000     5.0000     2.5000  
    6.00000     6.0000     3.0000  
    7.00000     7.0000     3.5000  
    8.00000     8.0000     4.0000  
    9.00000     9.0000     4.5000  
   10.00000    10.0000     5.0000  
y
 **info** dc convergence successful at Newton-Raphson method 
 ******  
 lab1.sp

 ****** operating point information tnom=  25.000 temp=  25.000 ******
 ****** operating point status is all       simulation time is     0.     
    node    =voltage      node    =voltage

 +0:1       =  10.0000  0:2       =   5.0000 


 **** voltage sources

 subckt             
 element  0:vi      
  volts     10.0000 
  current   -5.0000m
  power     50.0000m

     total voltage source power dissipation=   50.0000m       watts



 **** resistors

 subckt                        
 element  0:r1       0:r2      
  r value    1.0000k    1.0000k
  v drop     5.0000     5.0000 
  current    5.0000m    5.0000m
  power     25.0000m   25.0000m


          ***** job concluded
 ******  
 lab1.sp

 ****** job statistics summary tnom=  25.000 temp=  25.000 ******
  
 ******  Machine Information  ******
 CPU:
 model name	: Intel(R) Xeon(R) Silver 4316 CPU @ 2.30GHz
 cpu MHz	: 2600.000
 CPU(s)		: 40
  
 OS:
 Linux version 3.10.0-1160.102.1.el7.x86_64 (mockbuild@kbuilder.bsys.centos.org) (gcc version 4.8.5 20150623 (Red Hat 4.8.5-44) (GCC) ) #1 SMP Tue Oct 17 15:42:21 UTC 2023

 System loadavg : 15.47 15.53 15.49 16/1768 24572


  ******  PrimeSim HSPICE Threads Information  ******

  Command Line Threads Count :     1
  Available CPU Count        :    40
  Actual Threads Count       :     1


  ******  Circuit Statistics  ******
  # nodes       =       3 # elements   =       3
  # resistors   =       2 # capacitors =       0 # inductors   =       0
  # mutual_inds =       0 # vccs       =       0 # vcvs        =       0
  # cccs        =       0 # ccvs       =       0 # volt_srcs   =       1
  # curr_srcs   =       0 # diodes     =       0 # bjts        =       0
  # jfets       =       0 # mosfets    =       0 # U elements  =       0
  # T elements  =       0 # W elements =       0 # B elements  =       0
  # S elements  =       0 # P elements =       0 # va device   =       0
  # vector_srcs =       0 # N elements =       0


  ******  Runtime Statistics (seconds)  ******

  analysis           time    # points   tot. iter  conv.iter
  op point           0.00           1           1
  dc sweep           0.00          11          11
  readin             0.00
  errchk             0.00
  setup              0.00
  output             0.00


           peak memory used        531.47 megabytes
           total cpu time            0.01 seconds
           total elapsed time        0.05 seconds
           job started at     17:51:57 05/26/2026
           job ended   at     17:51:57 05/26/2026

>info:         ***** hspice job concluded
           job total runtime         0.05 seconds


 lic: Release hspice token(s) 
 lic: total license checkout elapse time:        0.05(s)
