Using: /home/mario/synopsys/tool/hspice/V-2023.12-SP1/hspice/linux64/hspice lab4.sp
 ****** PrimeSim HSPICE -- V-2023.12-SP1 linux64 (Feb 29 2024 8764641) ******
  Copyright (c) 1986 - 2026 by Synopsys, Inc. All Rights Reserved.
  This software and the associated documentation are proprietary
  to Synopsys, Inc. This software may only be used in accordance
  with the terms and conditions of a written license agreement with
  Synopsys, Inc. All other use, reproduction, or distribution of
  this software is strictly prohibited.
  Input File: lab4.sp                                                           
  Command line options: /home/mario/synopsys/tool/hspice/V-2023.12-SP1/hspice/linux64/hspice lab4.sp
  Start time: Tue May 26 18:33:03 2026
 lic:  
 lic: FLEXlm: SDK_12.11.9.5 
 lic: USER:   mario                HOSTNAME: mario 
 lic: HOSTID: ffffffff91736e9d     PID:      30404 
 lic: Using FLEXlm license files: 
 lic: 27020@115.145.157.110:27021@115.145.157.110 
 lic: Unable to checkout (hspice) 
 lic:   
 lic: Using FLEXlm license file: 
 lic: 27021@115.145.157.110 
 lic: Checkout 1 primesim 
 lic: License/Maintenance for primesim will expire on 12-apr-2027/2026.03 
 lic: 4(in_use)/30(total) FLOATING license(s) on SERVER 27021@115.145.157.110 
 lic:   
 scientific notation:
 a=10**-18  f=10**-15  p=10**-12  n=10**-9  u=10**-6
 m=10**-3   k=10**3    x=10**6    g=10**9 


 circuit parameter definitions
  parameter          =  value 





 constants  - tnom         kt           vt           gapsi        ni
            298.15000    4.1163e-21    25.69184m     1.11562    1.2565e+16 
  **info** (lab4.sp:3) DC voltage reset to initial transient source value in source 0:vi. new dc=0.0000D+00
1****** PrimeSim HSPICE -- V-2023.12-SP1 linux64 (Feb 29 2024 8764641) ******
 ******  
 lab4.sp

 ****** circuit element summary tnom=  25.000 temp=  25.000 ******


 **** resistors

  
  
                            
 element name        0:r1   
 node1               0:5    
 node2               0:1    
 model                      
 res eff             1.0000 
 tc1                 0.     
 tc2                 0.     
 scale               1.0000 
 m                   1.0000 
 ac                  1.0000 
 temp               25.0000 
 l                   0.     
 w                   0.     
 cap                 0.     
 noise            1.000e+00 


 **** capacitors
  
  
                                        
 element name        0:c1       0:c2    
 node1               0:2        0:3     
 node2               0:0        0:0     
 model                                  
 cap eff             1.0824n    1.5307n 
 tc1                 0.         0.      
 tc2                 0.         0.      
 scale               1.0000     1.0000  
 ic                  0.         0.      
 m                   1.0000     1.0000  
 w                   0.         0.      
 l                   0.         0.      
 temp               25.0000    25.0000  


 **** inductors
  
  
                                        
 element name        0:l1       0:l2    
 node1               0:1        0:2     
 node2               0:2        0:3     
 model                                  
 ind eff           382.6700n    1.5772u 
 res eff             0.         0.      
 tc1                 0.         0.      
 tc2                 0.         0.      
 nt                  1.0000     1.0000  
 ic                  0.         0.      
 m                   1.0000     1.0000  


 **** independent sources

     name         node1        node2      dc volt    ac mag    ac phase    type
  vi  5                 0                    0.         1.0000     0.      pwl  
                time        value

                   0.           0.     
                   1.0000u      0.     
                  20.0000u      1.0000 
                  20.1000u      0.     


  
 ******  
 lab4.sp

 ****** element node table
                            
 0                c1 c2 vi  
 1                r1 l1     
 2                c1 l1 l2  
 3                c2 l2     
 5                r1 vi     
 *****************************************************************
 ******  option summary
 ******
 runlvl  = 3         bypass  = 2.0000    
 **info** dc convergence successful at Newton-Raphson method 
 ******  
 lab4.sp

 ****** operating point information tnom=  25.000 temp=  25.000 ******
 ****** operating point status is all       simulation time is     0.     
    node    =voltage      node    =voltage      node    =voltage

 +0:1       =   0.      0:2       =   0.      0:3       =   0.     
 +0:5       =   0.     


 **** voltage sources

 subckt             
 element  0:vi      
  volts      0.     
  current    0.     
  power      0.     

     total voltage source power dissipation=    0.            watts



 **** resistors

 subckt             
 element  0:r1      
  r value    1.0000 
  v drop     0.     
  current    0.     
  power      0.     


 **** inductors

 subckt                        
 element  0:l1       0:l2      
  l value  382.6700n    1.5772u
  v drop     0.         0.     
  current    0.         0.     
  power      0.         0.     


          ***** job concluded
 ******  
 lab4.sp

 ****** job statistics summary tnom=  25.000 temp=  25.000 ******
  
 ******  Machine Information  ******
 CPU:
 model name	: Intel(R) Xeon(R) Silver 4316 CPU @ 2.30GHz
 cpu MHz	: 2600.000
 CPU(s)		: 40
  
 OS:
 Linux version 3.10.0-1160.102.1.el7.x86_64 (mockbuild@kbuilder.bsys.centos.org) (gcc version 4.8.5 20150623 (Red Hat 4.8.5-44) (GCC) ) #1 SMP Tue Oct 17 15:42:21 UTC 2023

 System loadavg : 15.30 15.33 15.34 18/1733 30407


  ******  PrimeSim HSPICE Threads Information  ******

  Command Line Threads Count :     1
  Available CPU Count        :    40
  Actual Threads Count       :     1


  ******  Circuit Statistics  ******
  # nodes       =       5 # elements   =       6
  # resistors   =       1 # capacitors =       2 # inductors   =       2
  # mutual_inds =       0 # vccs       =       0 # vcvs        =       0
  # cccs        =       0 # ccvs       =       0 # volt_srcs   =       1
  # curr_srcs   =       0 # diodes     =       0 # bjts        =       0
  # jfets       =       0 # mosfets    =       0 # U elements  =       0
  # T elements  =       0 # W elements =       0 # B elements  =       0
  # S elements  =       0 # P elements =       0 # va device   =       0
  # vector_srcs =       0 # N elements =       0


  ******  Runtime Statistics (seconds)  ******

  analysis           time    # points   tot. iter  conv.iter
  op point           0.00           1           1
  ac analysis        0.00         121         121
  transient          0.00          21         416         208 rev=         1
  readin             0.00
  errchk             0.00
  setup              0.00
  output             0.00


           peak memory used        531.57 megabytes
           total cpu time            0.01 seconds
           total elapsed time        0.06 seconds
           job started at     18:33:03 05/26/2026
           job ended   at     18:33:03 05/26/2026

>info:         ***** hspice job concluded
           job total runtime         0.06 seconds


 lic: Release primesim token(s) 
 lic: total license checkout elapse time:        0.05(s)
