Using: /home/mario/synopsys/tool/hspice/V-2023.12-SP1/hspice/linux64/hspice lab6.sp
 ****** PrimeSim HSPICE -- V-2023.12-SP1 linux64 (Feb 29 2024 8764641) ******
  Copyright (c) 1986 - 2026 by Synopsys, Inc. All Rights Reserved.
  This software and the associated documentation are proprietary
  to Synopsys, Inc. This software may only be used in accordance
  with the terms and conditions of a written license agreement with
  Synopsys, Inc. All other use, reproduction, or distribution of
  this software is strictly prohibited.
  Input File: lab6.sp                                                           
  Command line options: /home/mario/synopsys/tool/hspice/V-2023.12-SP1/hspice/linux64/hspice lab6.sp
  Start time: Tue May 26 19:17:52 2026
 lic:  
 lic: FLEXlm: SDK_12.11.9.5 
 lic: USER:   mario                HOSTNAME: mario 
 lic: HOSTID: ffffffff91736e9d     PID:      314 
 lic: Using FLEXlm license file: 
 lic: 27021@115.145.157.110 
 lic: Checkout 1 hspice 
 lic: License/Maintenance for hspice will expire on 12-apr-2027/2026.03 
 lic: 5(in_use)/5(total) FLOATING license(s) on SERVER 27021@115.145.157.110 
 lic:   
 scientific notation:
 a=10**-18  f=10**-15  p=10**-12  n=10**-9  u=10**-6
 m=10**-3   k=10**3    x=10**6    g=10**9 


 circuit parameter definitions
  parameter          =  value 





 constants  - tnom         kt           vt           gapsi        ni
            298.15000    4.1163e-21    25.69184m     1.11562    1.2565e+16 
1****** PrimeSim HSPICE -- V-2023.12-SP1 linux64 (Feb 29 2024 8764641) ******
 ******  
 lab6.sp

 ****** diode model parameters tnom=  25.000 temp=  25.000 ******
 ********************************************************
 *** common model parameters model name:   0:dn4148  ****
 ********************************************************

     names  values   units     names  values   units     names  values   units
     -----  ------   -----     -----  ------   -----     -----  ------   -----

   1*** dc breakdown parameters ***
       vb= 100.00  volts        ibv=   1.00m amps   

   2*** parasitic resistance parameters ***
       rs= 800.00m ohms   

   3*** capacitance parameters ***
       fc= 500.00m              fcs= 500.00m                m= 450.00m        
     mjsw= 330.00m               pb= 600.00m volts        php= 600.00m volts  
       tt=   6.00n secs         cjo=   5.00p f/area       cjp=   0.    f/pj   

   4*** temperature effect parameters ***
     tlev=   0.               tlevc=   0.                 tcv=   0.    v/deg k
      trs=   0.    /deg         cta=   0.    /deg         ctp=   0.    /deg   
      xti=   3.00            xtitun=   3.00               keg=   1.00         
       eg=   1.11  ev          gap1= 702.00u  ev/deg     gap2=   1.11k  deg   
     ttt1=   0.    /deg        ttt2=   0.    /deg2        tm1=   0.    /deg   
      tm2=   0.    /deg2        tpb=   0.    v/deg k     tphp=   0.    v/deg k
     tref=  25.00   deg c 

   5*** noise parameters ***
       kf=   0.                  af=   1.00         

   ***  level   1  model parameters  ***

    level=   1.00                is=   7.00n amps         jsw=   0.    amps   
        n=   2.00               nbv=   2.00                ik=   0.    amp    
     area=   1.00                pj=   0.                 ikr=   0.    amp    
    expli=   0.    amps      explir=   0.    amps        jtun=   0.    amps   
   jtunsw=   0.    amps        ntun=  30.00         
  
  **info** (lab6.sp:3) DC voltage reset to initial transient source value in source 0:v1. new dc=0.0000D+00
 ******  
 lab6.sp

 ****** circuit element summary tnom=  25.000 temp=  25.000 ******


 **** resistors

  
  
                            
 element name        0:r1   
 node1               0:2    
 node2               0:3    
 model                      
 res eff             1.0000 
 tc1                 0.     
 tc2                 0.     
 scale               1.0000 
 m                   1.0000 
 ac                  1.0000 
 temp               25.0000 
 l                   0.     
 w                   0.     
 cap                 0.     
 noise            1.000e+00 


 **** independent sources

     name         node1        node2      dc volt    ac mag    ac phase    type
  v1  1                 0                    0.         0.         0.      sin  
             offset.......     0.     
             amplitude....     1.0000 
             frequency....     1.0000k
             delay........     0.     
             theta........     0.     
             phase........     0.     

  v2  3                 0                  500.0000m    0.         0.      dc   


 **** diodes

  
  
                              
 name                0:d1     
 node +              0:2      
 node -              0:1      
 model               0:dn4148 
 res eff           800.0000m  
 cdsat eff           7.0000n  
 capd eff            5.0000p  
 poly cap                     
 metal cap                    
 ic                           
  
 ******  
 lab6.sp

 ****** element node table
                            
 0                v1 v2     
 1                v1 d1:-   
 2                r1 d1:+   
 3                r1 v2     
 *****************************************************************
 ******  option summary
 ******
 runlvl  = 3         bypass  = 2.0000    
 **info** dc convergence successful at Newton-Raphson method 
 ******  
 lab6.sp

 ****** operating point information tnom=  25.000 temp=  25.000 ******
 ****** operating point status is all       simulation time is     0.     
    node    =voltage      node    =voltage      node    =voltage

 +0:1       =   0.      0:2       = 499.8827m 0:3       = 500.0000m


 **** voltage sources

 subckt                        
 element  0:v1       0:v2      
  volts      0.       500.0000m
  current  117.2960u -117.2960u
  power      0.        58.6480u

     total voltage source power dissipation=   58.6480u       watts



 **** resistors

 subckt             
 element  0:r1      
  r value    1.0000 
  v drop  -117.2960u
  current -117.2960u
  power     13.7583n


 **** diodes


 subckt             
 element  0:d1      
 model    0:dn4148  
  id       117.2960u
  vd       499.8827m
  req      438.0425 
  cap       20.5715p



 ******
 lab6.sp

 ****** transient analysis tnom=  25.000 temp=  25.000 ******
x

 time         voltage    voltage   
             2          1          
    0.        499.8827m    0.      
   10.00000u  499.9611m   62.7732m 
   20.00000u  499.9823m  124.9495m 
   30.00000u  499.9912m  186.8908m 
   40.00000u  499.9990m  247.7954m 
   50.00000u  499.9991m  302.3321m 
   60.00000u  499.9992m  356.8689m 
   70.00000u  499.9994m  411.4056m 
   80.00000u  499.9995m  465.9423m 
   90.00000u  499.9996m  520.4791m 
  100.00000u  499.9998m  575.0158m 
  110.00000u  499.9999m  629.5525m 
  120.00000u  500.0000m  684.0893m 
  130.00000u  500.0000m  726.1867m 
  140.00000u  500.0000m  767.6019m 
  150.00000u  500.0000m  809.0170m 
  160.00000u  500.0000m  838.4723m 
  170.00000u  500.0000m  867.9276m 
  180.00000u  500.0000m  897.3830m 
  190.00000u  500.0000m  926.8383m 
  200.00000u  500.0000m  949.7437m 
  210.00000u  500.0000m  968.0124m 
  220.00000u  500.0000m  977.5447m 
  230.00000u  500.0000m  985.0298m 
  240.00000u  500.0000m  992.5149m 
  250.00000u  500.0000m    1.0000  
  260.00000u  500.0000m  990.2113m 
  270.00000u  500.0000m  980.4226m 
  280.00000u  500.0000m  970.6339m 
  290.00000u  500.0000m  960.8452m 
  300.00000u  500.0000m  951.0565m 
  310.00000u  500.0000m  928.6427m 
  320.00000u  500.0000m  902.8277m 
  330.00000u  500.0000m  871.5575m 
  340.00000u  500.0000m  840.2872m 
  350.00000u  500.0000m  809.0170m 
  360.00000u  500.0000m  764.2302m 
  370.00000u  500.0000m  719.4434m 
  380.00000u  500.0000m  674.6565m 
  390.00000u  500.0000m  629.8697m 
  400.00000u  500.0000m  585.0829m 
  410.00000u  500.0000m  535.1038m 
  420.00000u  500.0000m  481.4497m 
  430.00000u  499.9987m  423.0846m 
  440.00000u  499.9971m  363.6029m 
  450.00000u  499.9956m  304.1213m 
  460.00000u  499.9940m  244.6396m 
  470.00000u  499.9925m  185.1580m 
  480.00000u  499.9849m  125.2919m 
  490.00000u  499.9337m   62.6460m 
  500.00000u  499.8826m  122.4647a 
  510.00000u  498.1806m  -62.3566m 
  520.00000u  496.4786m -124.7132m 
  530.00000u  494.7766m -187.0698m 
  540.00000u  485.7907m -247.8424m 
  550.00000u  472.0615m -307.5833m 
  560.00000u  458.3322m -367.3243m 
  570.00000u  440.0191m -423.9300m 
  580.00000u  417.5214m -477.6736m 
  590.00000u  395.0238m -531.4172m 
  600.00000u  372.5262m -585.1608m 
  610.00000u  350.0699m -637.0626m 
  620.00000u  327.7718m -684.4510m 
  630.00000u  306.5587m -728.5267m 
  640.00000u  286.6076m -769.4373m 
  650.00000u  267.1873m -809.0170m 
  660.00000u  249.8109m -843.9657m 
  670.00000u  233.9395m -875.6965m 
  680.00000u  219.4368m -904.5506m 
  690.00000u  208.8785m -925.3810m 
  700.00000u  198.3202m -946.2115m 
  710.00000u  187.7619m -967.0419m 
  720.00000u  182.1844m -978.0094m 
  730.00000u  178.4438m -985.3396m 
  740.00000u  174.7031m -992.6698m 
  750.00000u  170.9625m   -1.0000  
  760.00000u  172.0220m -997.9274m 
  770.00000u  175.2740m -991.5612m 
  780.00000u  182.4438m -977.4588m 
  790.00000u  191.0727m -960.4751m 
  800.00000u  199.7016m -943.4915m 
  810.00000u  208.3305m -926.5078m 
  820.00000u  220.6322m -902.0474m 
  830.00000u  236.1514m -871.0373m 
  840.00000u  251.6707m -840.0271m 
  850.00000u  267.1899m -809.0170m 
  860.00000u  286.1612m -770.4996m 
  870.00000u  306.6844m -728.2328m 
  880.00000u  328.1837m -682.9120m 
  890.00000u  350.7029m -634.3829m 
  900.00000u  373.2222m -585.8537m 
  910.00000u  395.6598m -534.9479m 
  920.00000u  417.9539m -479.8595m 
  930.00000u  440.2481m -424.7710m 
  940.00000u  459.1157m -367.4716m 
  950.00000u  474.9561m -308.2187m 
  960.00000u  488.9410m -248.5641m 
  970.00000u  494.6008m -187.1071m 
  980.00000u  498.3732m -125.2238m 
  990.00000u  499.4420m  -62.7298m 
    1.00000m  499.8819m -244.9294a 
    1.01000m  499.9601m   62.7461m 
    1.02000m  499.9878m  125.3022m 
    1.03000m  499.9934m  186.4073m 
    1.04000m  499.9960m  247.3074m 
    1.05000m  499.9985m  308.2076m 
    1.06000m  499.9999m  366.0444m 
    1.07000m  499.9999m  420.2226m 
    1.08000m  500.0000m  474.4008m 
    1.09000m  500.0000m  528.5790m 
    1.10000m  500.0000m  582.7572m 
    1.11000m  500.0000m  636.9354m 
    1.12000m  500.0000m  680.6671m 
    1.13000m  500.0000m  723.4504m 
    1.14000m  500.0000m  766.2337m 
    1.15000m  500.0000m  809.0170m 
    1.16000m  500.0000m  838.4437m 
    1.17000m  500.0000m  867.8705m 
    1.18000m  500.0000m  897.2972m 
    1.19000m  500.0000m  926.7240m 
    1.20000m  500.0000m  949.7477m 
    1.21000m  500.0000m  967.9302m 
    1.22000m  500.0000m  977.7170m 
    1.23000m  500.0000m  985.1446m 
    1.24000m  500.0000m  992.5723m 
    1.25000m  500.0000m    1.0000  
    1.26000m  500.0000m  990.2113m 
    1.27000m  500.0000m  980.4226m 
    1.28000m  500.0000m  970.6339m 
    1.29000m  500.0000m  960.8452m 
    1.30000m  500.0000m  951.0565m 
    1.31000m  500.0000m  928.6427m 
    1.32000m  500.0000m  902.8276m 
    1.33000m  500.0000m  871.5574m 
    1.34000m  500.0000m  840.2872m 
    1.35000m  500.0000m  809.0170m 
    1.36000m  500.0000m  764.2301m 
    1.37000m  500.0000m  719.4433m 
    1.38000m  500.0000m  674.6564m 
    1.39000m  500.0000m  629.8696m 
    1.40000m  500.0000m  585.0827m 
    1.41000m  500.0000m  535.1038m 
    1.42000m  500.0000m  481.4496m 
    1.43000m  499.9987m  423.0847m 
    1.44000m  499.9971m  363.6030m 
    1.45000m  499.9956m  304.1213m 
    1.46000m  499.9940m  244.6396m 
    1.47000m  499.9925m  185.1580m 
    1.48000m  499.9849m  125.2919m 
    1.49000m  499.9337m   62.6460m 
    1.50000m  499.8826m  367.3940a 
    1.51000m  499.4995m  -62.7520m 
    1.52000m  498.3648m -125.2230m 
    1.53000m  493.8355m -186.9695m 
    1.54000m  486.6502m -248.1491m 
    1.55000m  477.1507m -308.8211m 
    1.56000m  460.4907m -367.9226m 
    1.57000m  440.3035m -425.1985m 
    1.58000m  418.8549m -481.6000m 
    1.59000m  395.8741m -535.2265m 
    1.60000m  372.9263m -587.1575m 
    1.61000m  350.0149m -637.2081m 
    1.62000m  328.1607m -683.2797m 
    1.63000m  306.4516m -728.8056m 
    1.64000m  286.7525m -769.0864m 
    1.65000m  267.1876m -809.0170m 
    1.66000m  249.9299m -843.7081m 
    1.67000m  233.8091m -875.9702m 
    1.68000m  219.7297m -903.9415m 
    1.69000m  208.2932m -926.5727m 
    1.70000m  198.9391m -944.9960m 
    1.71000m  189.5850m -963.4193m 
    1.72000m  180.2310m -981.8426m 
    1.73000m  176.8613m -988.4483m 
    1.74000m  173.9119m -994.2241m 
    1.75000m  170.9625m   -1.0000  
    1.76000m  171.9914m -997.9873m 
    1.77000m  175.2905m -991.5288m 
    1.78000m  182.3792m -977.5864m 
    1.79000m  191.0470m -960.5252m 
    1.80000m  199.7149m -943.4641m 
    1.81000m  208.3827m -926.4030m 
    1.82000m  220.5867m -902.1422m 
    1.83000m  236.1211m -871.1004m 
    1.84000m  251.6555m -840.0587m 
    1.85000m  267.1899m -809.0170m 
    1.86000m  286.1611m -770.5000m 
    1.87000m  306.6844m -728.2328m 
    1.88000m  328.1839m -682.9112m 
    1.89000m  350.7030m -634.3826m 
    1.90000m  373.2221m -585.8540m 
    1.91000m  395.6597m -534.9476m 
    1.92000m  417.9540m -479.8594m 
    1.93000m  440.2482m -424.7712m 
    1.94000m  459.1154m -367.4715m 
    1.95000m  474.9561m -308.2187m 
    1.96000m  488.9409m -248.5641m 
    1.97000m  494.6008m -187.1071m 
    1.98000m  498.3732m -125.2238m 
    1.99000m  499.4420m  -62.7298m 
    2.00000m  499.8819m -489.8587a 
    2.01000m  499.9601m   62.7461m 
    2.02000m  499.9878m  125.3022m 
    2.03000m  499.9934m  186.4073m 
    2.04000m  499.9960m  247.3075m 
    2.05000m  499.9985m  308.2077m 
    2.06000m  499.9999m  366.0441m 
    2.07000m  499.9999m  420.2225m 
    2.08000m  500.0000m  474.4008m 
    2.09000m  500.0000m  528.5792m 
    2.10000m  500.0000m  582.7575m 
    2.11000m  500.0000m  636.9358m 
    2.12000m  500.0000m  680.6668m 
    2.13000m  500.0000m  723.4502m 
    2.14000m  500.0000m  766.2336m 
    2.15000m  500.0000m  809.0170m 
    2.16000m  500.0000m  838.4437m 
    2.17000m  500.0000m  867.8705m 
    2.18000m  500.0000m  897.2972m 
    2.19000m  500.0000m  926.7240m 
    2.20000m  500.0000m  949.7477m 
    2.21000m  500.0000m  967.9302m 
    2.22000m  500.0000m  977.7170m 
    2.23000m  500.0000m  985.1446m 
    2.24000m  500.0000m  992.5723m 
    2.25000m  500.0000m    1.0000  
    2.26000m  500.0000m  990.2113m 
    2.27000m  500.0000m  980.4226m 
    2.28000m  500.0000m  970.6339m 
    2.29000m  500.0000m  960.8452m 
    2.30000m  500.0000m  951.0565m 
    2.31000m  500.0000m  928.6427m 
    2.32000m  500.0000m  902.8276m 
    2.33000m  500.0000m  871.5574m 
    2.34000m  500.0000m  840.2872m 
    2.35000m  500.0000m  809.0170m 
    2.36000m  500.0000m  764.2301m 
    2.37000m  500.0000m  719.4433m 
    2.38000m  500.0000m  674.6564m 
    2.39000m  500.0000m  629.8696m 
    2.40000m  500.0000m  585.0827m 
    2.41000m  500.0000m  535.1038m 
    2.42000m  500.0000m  481.4496m 
    2.43000m  499.9987m  423.0847m 
    2.44000m  499.9971m  363.6030m 
    2.45000m  499.9956m  304.1213m 
    2.46000m  499.9940m  244.6396m 
    2.47000m  499.9925m  185.1580m 
    2.48000m  499.9849m  125.2919m 
    2.49000m  499.9337m   62.6460m 
    2.50000m  499.8826m  612.3234a 
    2.51000m  499.4995m  -62.7520m 
    2.52000m  498.3648m -125.2230m 
    2.53000m  493.8355m -186.9695m 
    2.54000m  486.6502m -248.1491m 
    2.55000m  477.1507m -308.8211m 
    2.56000m  460.4907m -367.9226m 
    2.57000m  440.3035m -425.1985m 
    2.58000m  418.8549m -481.6000m 
    2.59000m  395.8741m -535.2265m 
    2.60000m  372.9263m -587.1575m 
    2.61000m  350.0149m -637.2081m 
    2.62000m  328.1607m -683.2797m 
    2.63000m  306.4516m -728.8056m 
    2.64000m  286.7525m -769.0864m 
    2.65000m  267.1876m -809.0170m 
    2.66000m  249.9299m -843.7081m 
    2.67000m  233.8091m -875.9702m 
    2.68000m  219.7297m -903.9415m 
    2.69000m  208.2932m -926.5727m 
    2.70000m  198.9391m -944.9960m 
    2.71000m  189.5850m -963.4193m 
    2.72000m  180.2310m -981.8426m 
    2.73000m  176.8613m -988.4483m 
    2.74000m  173.9119m -994.2241m 
    2.75000m  170.9625m   -1.0000  
    2.76000m  171.9914m -997.9873m 
    2.77000m  175.2905m -991.5288m 
    2.78000m  182.3792m -977.5864m 
    2.79000m  191.0470m -960.5252m 
    2.80000m  199.7149m -943.4641m 
    2.81000m  208.3827m -926.4030m 
    2.82000m  220.5867m -902.1422m 
    2.83000m  236.1211m -871.1004m 
    2.84000m  251.6555m -840.0587m 
    2.85000m  267.1899m -809.0170m 
    2.86000m  286.1611m -770.5000m 
    2.87000m  306.6844m -728.2328m 
    2.88000m  328.1839m -682.9112m 
    2.89000m  350.7030m -634.3826m 
    2.90000m  373.2221m -585.8540m 
    2.91000m  395.6597m -534.9476m 
    2.92000m  417.9540m -479.8594m 
    2.93000m  440.2482m -424.7712m 
    2.94000m  459.1154m -367.4715m 
    2.95000m  474.9561m -308.2187m 
    2.96000m  488.9409m -248.5641m 
    2.97000m  494.6008m -187.1071m 
    2.98000m  498.3732m -125.2238m 
    2.99000m  499.4420m  -62.7298m 
    3.00000m  499.8819m -734.7881a 
y

          ***** job concluded
 ******  
 lab6.sp

 ****** job statistics summary tnom=  25.000 temp=  25.000 ******
  
 ******  Machine Information  ******
 CPU:
 model name	: Intel(R) Xeon(R) Silver 4316 CPU @ 2.30GHz
 cpu MHz	: 2600.000
 CPU(s)		: 40
  
 OS:
 Linux version 3.10.0-1160.102.1.el7.x86_64 (mockbuild@kbuilder.bsys.centos.org) (gcc version 4.8.5 20150623 (Red Hat 4.8.5-44) (GCC) ) #1 SMP Tue Oct 17 15:42:21 UTC 2023

 System loadavg : 15.30 15.35 15.40 17/1714 317


  ******  PrimeSim HSPICE Threads Information  ******

  Command Line Threads Count :     1
  Available CPU Count        :    40
  Actual Threads Count       :     1


  ******  Circuit Statistics  ******
  # nodes       =       5 # elements   =       4
  # resistors   =       1 # capacitors =       0 # inductors   =       0
  # mutual_inds =       0 # vccs       =       0 # vcvs        =       0
  # cccs        =       0 # ccvs       =       0 # volt_srcs   =       2
  # curr_srcs   =       0 # diodes     =       1 # bjts        =       0
  # jfets       =       0 # mosfets    =       0 # U elements  =       0
  # T elements  =       0 # W elements =       0 # B elements  =       0
  # S elements  =       0 # P elements =       0 # va device   =       0
  # vector_srcs =       0 # N elements =       0


  ******  Runtime Statistics (seconds)  ******

  analysis           time    # points   tot. iter  conv.iter
  op point           0.00           1           6
  transient          0.00         301         363         135 rev=         8
  readin             0.00
  errchk             0.00
  setup              0.00
  output             0.00


           peak memory used        531.53 megabytes
           total cpu time            0.02 seconds
           total elapsed time        0.07 seconds
           job started at     19:17:52 05/26/2026
           job ended   at     19:17:52 05/26/2026

>info:         ***** hspice job concluded
           job total runtime         0.07 seconds


 lic: Release hspice token(s) 
 lic: total license checkout elapse time:        0.05(s)
